Circuit: ** DC circuit - 3 **

Instance "m:dut:2": Length shorter than recommended for a level 1 MOSFET.
Direct Newton iteration for .op point skipped.
Gmin stepping method for .op point skipped.
Starting source stepping with srcstepmethod=0
Source Step = 3.0303%
Source Step = 33.3333%
Source Step = 63.6364%
Source Step = 93.9394%
Source stepping succeeded in finding the operating point.

Semiconductor Device Operating Points:
                        --- Diodes ---
Name:    d:q9:bd     d:q4:bd    d:u9:sub     d:u9:4      d:u9:3
Model:   q9:dbd      q4:dbd      u9:dm2      u9:dm2      u9:dm2
Id:     -6.34e-11   -6.34e-11   -1.53e-11    2.67e-02   -1.25e-11
Vd:     -2.95e-03   -2.95e-03   -1.53e+01    8.05e-01   -1.25e+01
Req:     4.93e+07    4.93e+07    1.00e+12    9.69e-01    1.00e+12
CAP:     5.23e-10    5.23e-10    0.00e+00    0.00e+00    0.00e+00

Name:    d:u9:2      d:u9:1      d:q1:bd    d:u2:sub     d:u2:4
Model:   u9:dm1      u9:dm1      q1:dbd      u2:dm2      u2:dm2
Id:      2.83e+00   -8.92e-13   -3.95e-11   -1.53e-11   -3.47e-12
Vd:      8.89e-01   -8.89e-01   -1.20e+01   -1.53e+01   -3.47e+00
Req:     9.14e-03    1.00e+12    1.00e+12    1.00e+12    1.00e+12
CAP:     0.00e+00    0.00e+00    3.19e-11    0.00e+00    0.00e+00

Name:    d:u2:3      d:u2:2      d:u2:1      d:q3:bd    d:u4:sub
Model:   u2:dm2      u2:dm1      u2:dm1      q3:dbd      u4:dm2
Id:     -8.22e-12   -1.50e-14    1.60e-14   -5.95e-10   -1.53e-11
Vd:     -8.22e+00   -1.37e-02    1.37e-02   -7.39e+00   -1.53e+01
Req:     1.00e+12    9.29e+11    8.20e+11    1.00e+12    1.00e+12
CAP:     0.00e+00    0.00e+00    0.00e+00    1.69e-10    0.00e+00

Name:    d:u4:4      d:u4:3      d:u4:2      d:u4:1     d:q11:bd
Model:   u4:dm2      u4:dm2      u4:dm1      u4:dm1      q11:dbd
Id:     -9.54e-12   -2.14e-12    1.20e-15   -1.19e-15    0.00e+00
Vd:     -9.54e+00   -2.14e+00    1.06e-03   -1.06e-03   -4.61e+00
Req:     1.00e+12    1.00e+12    8.82e+11    8.90e+11    1.00e+12
CAP:     0.00e+00    0.00e+00    0.00e+00    0.00e+00    5.08e-11

Name:    d:q5:bd     d:q6:4      d:q6:3      d:q6:2      d:q6:1
Model:   q5:dbd      q6:md3      q6:md2      q6:md1       q6:md
Id:     -2.78e-11   -1.01e-10   -1.01e-10   -1.26e-12   -2.72e-10
Vd:     -1.09e+00   -1.26e+00   -1.26e+00   -1.26e+00   -1.26e+00
Req:     1.00e+12    1.00e+12    1.00e+12    1.00e+12    1.00e+12
CAP:     2.72e-11    0.00e+00    0.00e+00    2.99e-11    2.75e-11

Name:    d:q7:bd     d:q8:4      d:q8:3      d:q8:2      d:q8:1
Model:   q7:dbd      q8:md3      q8:md2      q8:md1       q8:md
Id:      0.00e+00    4.75e+00    4.75e+00    2.54e-13   -4.38e-13
Vd:     -5.65e-01    2.54e-01    2.54e-01    2.54e-01   -6.27e-05
Req:     1.00e+12    2.18e-03    2.18e-03    1.00e+12    1.43e+08
CAP:     3.23e-11    0.00e+00    0.00e+00    1.08e-10    3.41e-11

Name:    d:dut:1
Model:  dut:dbody
Id:     -2.86e-13
Vd:     -1.61e-01
Req:     9.89e+11
CAP:     4.17e-11

                        --- Bipolar Transistors ---
Name:     q:u9:2      q:u9:1      q:u2:2      q:u2:1           qq2
Model:    u9:qm2      u9:qm1      u2:qm2      u2:qm1    qbd135__bjt_npn__1
Ib:       6.70e-08    7.19e-08    6.81e-08    7.11e-08       4.18e-04
Ic:       7.33e-06    7.54e-06    7.46e-06    7.46e-06       5.21e-02
Vbe:      5.91e-01    5.94e-01    5.92e-01    5.94e-01       7.18e-01
Vbc:     -1.20e+01   -1.20e+01   -1.13e+01   -1.13e+01      -1.00e+01
Vce:      1.25e+01    1.25e+01    1.19e+01    1.19e+01       1.07e+01
BetaDC:   1.10e+02    1.05e+02    1.10e+02    1.05e+02       1.25e+02
Gm:       2.84e-04    2.92e-04    2.89e-04    2.88e-04       1.98e+00
Rpi:      3.86e+05    3.60e+05    3.80e+05    3.64e+05       6.12e+01
Rx:       0.00e+00    0.00e+00    0.00e+00    0.00e+00       5.00e-01
Ro:       0.00e+00    0.00e+00    0.00e+00    0.00e+00       4.41e+03
Cbe:      0.00e+00    0.00e+00    0.00e+00    0.00e+00       1.66e-09
Cbc:      0.00e+00    0.00e+00    0.00e+00    0.00e+00       8.44e-12
Cjs:      0.00e+00    0.00e+00    0.00e+00    0.00e+00       0.00e+00
BetaAC:   1.09e+02    1.05e+02    1.09e+02    1.05e+02       1.21e+02
Cbx:      0.00e+00    0.00e+00    0.00e+00    0.00e+00       0.00e+00
Ft:       0.00e+00    0.00e+00    0.00e+00    0.00e+00       1.88e+08

Name:     q:u4:2      q:u4:1
Model:    u4:qm2      u4:qm1
Ib:       6.93e-08    7.21e-08
Ic:       7.58e-06    7.57e-06
Vbe:      5.92e-01    5.94e-01
Vbc:     -8.26e+00   -8.26e+00
Vce:      8.85e+00    8.85e+00
BetaDC:   1.10e+02    1.05e+02
Gm:       2.93e-04    2.93e-04
Rpi:      3.73e+05    3.59e+05
Rx:       0.00e+00    0.00e+00
Ro:       0.00e+00    0.00e+00
Cbe:      0.00e+00    0.00e+00
Cbc:      0.00e+00    0.00e+00
Cjs:      0.00e+00    0.00e+00
BetaAC:   1.09e+02    1.05e+02
Cbx:      0.00e+00    0.00e+00
Ft:       0.00e+00    0.00e+00

                        --- MOSFET Transistors ---
Name:        m:q6:1      m:q8:1      m:dut:2     m:q9:1      m:q4:1
Model:        q6:mm       q8:mm     dut:most2    q9:mint     q4:mint
Id:          2.51e-12    1.26e-05   -4.29e-16   -2.62e-02   -2.62e-02
Vgs:        -3.79e-14    5.00e+00    7.23e+00   -2.30e+00   -2.30e+00
Vds:         1.26e+00    4.88e-05   -1.49e-13   -1.94e-03   -1.94e-03
Vbs:         0.00e+00    0.00e+00   -1.61e-01    0.00e+00    0.00e+00
Vth:         2.24e+00    2.24e+00   -4.73e+00   -6.36e-01   -6.36e-01
Vdsat:       0.00e+00    2.76e+00    1.20e+01   -1.69e+00   -1.69e+00
Gm:          0.00e+00    4.55e-06    1.43e-14    1.55e-02    1.55e-02
Gds:         0.00e+00    2.58e-01    1.21e+00    1.35e+01    1.35e+01
Gmb:         0.00e+00    0.00e+00    0.00e+00   -0.00e+00   -0.00e+00
Cbd:         0.00e+00    0.00e+00    0.00e+00    0.00e+00    0.00e+00
Cbs:         0.00e+00    0.00e+00    0.00e+00    0.00e+00    0.00e+00
Cgsov:       1.79e-11    1.79e-11    0.00e+00    0.00e+00    0.00e+00
Cgdov:       1.07e-15    1.07e-15    0.00e+00    0.00e+00    0.00e+00
Cgbov:       0.00e+00    0.00e+00    0.00e+00    0.00e+00    0.00e+00
Cgs:         0.00e+00    0.00e+00    0.00e+00    1.73e-12    1.73e-12
Cgd:         0.00e+00    0.00e+00    0.00e+00    1.73e-12    1.73e-12
Cgb:         0.00e+00    0.00e+00    0.00e+00    0.00e+00    0.00e+00

Name:        m:q1:1      m:q3:1      m:q11:1     m:q5:1      m:q7:1
Model:       q1:mint     q3:mint    q11:mint     q5:mint     q7:mint
Id:          2.40e-11   -1.48e-11    3.80e-04   -5.28e-06   -5.25e-02
Vgs:        -2.30e+00    6.59e-01    6.59e-01   -2.80e-05   -1.25e+00
Vds:         1.20e+01   -7.39e+00    4.61e+00   -1.09e+00   -5.62e-01
Vbs:         0.00e+00    0.00e+00    0.00e+00    0.00e+00    0.00e+00
Vth:         8.66e-01   -6.19e-01    8.66e-01   -1.27e+00   -1.27e+00
Vdsat:       4.10e-02   -2.59e-02    4.10e-02   -1.35e-01   -1.35e-01
Gm:          9.29e-34    3.66e-23    9.16e-03    3.87e-05    3.85e-01
Gds:         5.54e-37    8.64e-26    5.46e-06    1.01e-08    1.01e-04
Gmb:         0.00e+00    0.00e+00    0.00e+00    0.00e+00    0.00e+00
Cbd:         0.00e+00    0.00e+00    0.00e+00    0.00e+00    0.00e+00
Cbs:         0.00e+00    0.00e+00    0.00e+00    0.00e+00    0.00e+00
Cgsov:       0.00e+00    0.00e+00    0.00e+00    0.00e+00    0.00e+00
Cgdov:       0.00e+00    0.00e+00    0.00e+00    0.00e+00    0.00e+00
Cgbov:       0.00e+00    0.00e+00    0.00e+00    0.00e+00    0.00e+00
Cgs:         0.00e+00    2.00e-12    7.13e-13    2.30e-12    2.30e-12
Cgd:         0.00e+00    0.00e+00    0.00e+00    0.00e+00    0.00e+00
Cgb:         3.45e-12    2.28e-13    1.19e-12    0.00e+00    0.00e+00

Name:        m:dut:1
Model:      dut:most1
Id:          5.25e-02
Vgs:         7.39e+00
Vds:         1.61e-01
Vbs:         0.00e+00
Vth:         2.00e+00
Vdsat:       5.39e+00
Gm:          9.83e-03
Gds:         5.33e-01
Gmb:        -0.00e+00
Cbd:         0.00e+00
Cbs:         0.00e+00
Cgsov:       0.00e+00
Cgdov:       0.00e+00
Cgbov:       0.00e+00
Cgs:         3.38e-12
Cgd:         3.32e-12
Cgb:         0.00e+00



Date: Tue Apr 18 13:00:54 2023
Total elapsed time: 0.366 seconds.

tnom = 27
temp = 27
method = trap
totiter = 318
traniter = 0
tranpoints = 0
accept = 0
rejected = 0
matrix size = 247
fillins = 347
solver = Normal

