Circuit: ** DC circuit - 3 **

Direct Newton iteration for .op point skipped.
Gmin stepping method for .op point skipped.
Starting source stepping with srcstepmethod=0
Source Step = 3.0303%
Source Step = 9.84848%
Source Step = 17.4242%
Source Step = 25%
Source Step = 32.5758%
Source Step = 40.1515%
vernier = 0.375
Source Step = 50.7576%
Source Step = 62.1212%
Source Step = 73.4848%
Source Step = 84.8485%
Source Step = 96.2121%
vernier = 0.5625
Source stepping succeeded in finding the operating point.

Semiconductor Device Operating Points:
                        --- Diodes ---
Name:    d:q9:bd     d:q4:bd    d:u9:sub     d:u9:4      d:u9:3
Model:   q9:dbd      q4:dbd      u9:dm2      u9:dm2      u9:dm2
Id:     -9.76e-11   -9.76e-11   -1.53e-11    2.74e-02   -1.25e-11
Vd:     -4.69e-03   -4.69e-03   -1.53e+01    8.06e-01   -1.25e+01
Req:     5.28e+07    5.28e+07    1.00e+12    9.43e-01    1.00e+12
CAP:     5.22e-10    5.22e-10    0.00e+00    0.00e+00    0.00e+00

Name:    d:u9:2      d:u9:1      d:q1:bd    d:u2:sub     d:u2:4
Model:   u9:dm1      u9:dm1      q1:dbd      u2:dm2      u2:dm2
Id:      7.36e+00   -9.17e-13   -3.99e-11   -1.53e-11   -2.27e-12
Vd:      9.14e-01   -9.14e-01   -1.20e+01   -1.53e+01   -2.27e+00
Req:     3.51e-03    1.00e+12    1.00e+12    1.00e+12    1.00e+12
CAP:     0.00e+00    0.00e+00    3.19e-11    0.00e+00    0.00e+00

Name:    d:u2:3      d:u2:2      d:u2:1      d:q3:bd    d:u4:sub
Model:   u2:dm2      u2:dm1      u2:dm1      q3:dbd      u4:dm2
Id:     -9.41e-12    1.01e-16   -1.00e-16   -5.98e-10   -1.53e-11
Vd:     -9.41e+00    8.90e-05   -8.90e-05   -1.00e+01   -1.53e+01
Req:     1.00e+12    8.85e+11    8.86e+11    1.00e+12    1.00e+12
CAP:     0.00e+00    0.00e+00    0.00e+00    1.50e-10    0.00e+00

Name:    d:u4:4      d:u4:3      d:u4:2      d:u4:1     d:q11:bd
Model:   u4:dm2      u4:dm2      u4:dm1      u4:dm1      q11:dbd
Id:     -1.24e-11    2.89e-04   -9.12e-15    9.46e-15    0.00e+00
Vd:     -1.24e+01    6.88e-01   -8.21e-03    8.21e-03   -1.99e+00
Req:     1.00e+12    8.93e+01    9.14e+11    8.49e+11    1.00e+12
CAP:     0.00e+00    0.00e+00    0.00e+00    0.00e+00    7.37e-11

Name:    d:q5:bd     d:q6:4      d:q6:3      d:q6:2      d:q6:1
Model:   q5:dbd      q6:md3      q6:md2      q6:md1       q6:md
Id:      0.00e+00   -1.00e-10   -1.00e-10   -2.49e-13   -2.71e-10
Vd:     -2.25e-01   -2.49e-01   -2.49e-01   -2.49e-01   -2.49e-01
Req:     9.98e+11    1.00e+12    1.00e+12    1.00e+12    8.05e+10
CAP:     3.79e-11    0.00e+00    0.00e+00    5.91e-11    3.26e-11

Name:    d:q7:bd     d:q8:4      d:q8:3      d:q8:2      d:q8:1
Model:   q7:dbd      q8:md3      q8:md2      q8:md1       q8:md
Id:      0.00e+00    4.75e+00    4.75e+00    2.54e-13   -8.67e-14
Vd:     -2.30e-01    2.54e-01    2.54e-01    2.54e-01   -1.24e-05
Req:     9.98e+11    2.18e-03    2.18e-03    1.00e+12    1.43e+08
CAP:     3.78e-11    0.00e+00    0.00e+00    1.08e-10    3.41e-11

                        --- Bipolar Transistors ---
Name:     q:u9:2      q:u9:1      q:u2:2      q:u2:1           qq2
Model:    u9:qm2      u9:qm1      u2:qm2      u2:qm1    qbd135__bjt_npn__1
Ib:       6.55e-08    7.34e-08    6.80e-08    7.09e-08       4.11e-07
Ic:       7.17e-06    7.70e-06    7.44e-06    7.44e-06       5.26e-05
Vbe:      5.91e-01    5.95e-01    5.92e-01    5.94e-01       5.32e-01
Vbc:     -1.20e+01   -1.19e+01   -1.18e+01   -1.18e+01      -1.12e+01
Vce:      1.25e+01    1.25e+01    1.24e+01    1.24e+01       1.18e+01
BetaDC:   1.10e+02    1.05e+02    1.10e+02    1.05e+02       1.28e+02
Gm:       2.77e-04    2.98e-04    2.88e-04    2.88e-04       2.05e-03
Rpi:      3.95e+05    3.52e+05    3.81e+05    3.65e+05       6.26e+04
Rx:       0.00e+00    0.00e+00    0.00e+00    0.00e+00       5.00e-01
Ro:       0.00e+00    0.00e+00    0.00e+00    0.00e+00       4.40e+06
Cbe:      0.00e+00    0.00e+00    0.00e+00    0.00e+00       1.97e-10
Cbc:      0.00e+00    0.00e+00    0.00e+00    0.00e+00       8.05e-12
Cjs:      0.00e+00    0.00e+00    0.00e+00    0.00e+00       0.00e+00
BetaAC:   1.09e+02    1.05e+02    1.09e+02    1.05e+02       1.29e+02
Cbx:      0.00e+00    0.00e+00    0.00e+00    0.00e+00       0.00e+00
Ft:       0.00e+00    0.00e+00    0.00e+00    0.00e+00       1.60e+06

Name:     q:u4:2      q:u4:1           qdut
Model:    u4:qm2      u4:qm1    2n3415__bjt_npn__1
Ib:       6.97e-08    7.26e-08       8.35e-02
Ic:       7.64e-06    7.61e-06       3.79e-05
Vbe:      5.92e-01    5.94e-01       1.65e+00
Vbc:     -6.95e+00   -6.95e+00       1.64e+00
Vce:      7.55e+00    7.55e+00       1.35e-02
BetaDC:   1.10e+02    1.05e+02       4.54e-04
Gm:       2.95e-04    2.94e-04       1.91e+00
Rpi:      3.71e+05    3.56e+05       1.60e+01
Rx:       0.00e+00    0.00e+00       1.00e+01
Ro:       0.00e+00    0.00e+00       2.16e-01
Cbe:      0.00e+00    0.00e+00       2.02e-08
Cbc:      0.00e+00    0.00e+00       9.82e-09
Cjs:      0.00e+00    0.00e+00       0.00e+00
BetaAC:   1.09e+02    1.05e+02       3.06e+01
Cbx:      0.00e+00    0.00e+00       0.00e+00
Ft:       0.00e+00    0.00e+00       1.01e+07

                        --- MOSFET Transistors ---
Name:        m:q6:1      m:q8:1      m:q9:1      m:q4:1      m:q1:1
Model:        q6:mm       q8:mm      q9:mint     q4:mint     q1:mint
Id:          4.98e-13    2.49e-06   -4.18e-02   -4.18e-02    2.40e-11
Vgs:        -7.50e-15    5.00e+00   -2.30e+00   -2.30e+00   -2.30e+00
Vds:         2.49e-01    9.66e-06   -3.09e-03   -3.09e-03    1.20e+01
Vbs:         0.00e+00    0.00e+00    0.00e+00    0.00e+00    0.00e+00
Vth:         2.24e+00    2.24e+00   -6.36e-01   -6.36e-01    8.66e-01
Vdsat:       0.00e+00    2.76e+00   -1.69e+00   -1.69e+00    4.10e-02
Gm:          0.00e+00    9.01e-07    2.47e-02    2.47e-02    8.72e-34
Gds:         0.00e+00    2.58e-01    1.35e+01    1.35e+01    5.20e-37
Gmb:         0.00e+00    0.00e+00   -0.00e+00   -0.00e+00    0.00e+00
Cbd:         0.00e+00    0.00e+00    0.00e+00    0.00e+00    0.00e+00
Cbs:         0.00e+00    0.00e+00    0.00e+00    0.00e+00    0.00e+00
Cgsov:       1.79e-11    1.79e-11    0.00e+00    0.00e+00    0.00e+00
Cgdov:       1.07e-15    1.07e-15    0.00e+00    0.00e+00    0.00e+00
Cgbov:       0.00e+00    0.00e+00    0.00e+00    0.00e+00    0.00e+00
Cgs:         0.00e+00    0.00e+00    1.73e-12    1.73e-12    0.00e+00
Cgd:         0.00e+00    0.00e+00    1.73e-12    1.73e-12    0.00e+00
Cgb:         0.00e+00    0.00e+00    0.00e+00    0.00e+00    3.45e-12

Name:        m:q3:1      m:q11:1     m:q5:1      m:q7:1
Model:       q3:mint    q11:mint     q5:mint     q7:mint
Id:         -2.00e-11    8.40e-02   -5.28e-06   -3.28e-05
Vgs:         8.76e-01    8.75e-01   -2.70e-05   -2.49e-01
Vds:        -1.00e+01    1.99e+00   -2.25e-01   -2.30e-01
Vbs:         0.00e+00    0.00e+00    0.00e+00    0.00e+00
Vth:        -6.13e-01    8.66e-01   -1.27e+00   -1.27e+00
Vdsat:      -2.59e-02    5.01e-02   -1.35e-01   -1.35e-01
Gm:          1.04e-26    3.25e+00    3.87e-05    2.41e-04
Gds:         2.46e-29    1.47e-03    1.01e-08    6.28e-08
Gmb:         0.00e+00   -0.00e+00    0.00e+00    0.00e+00
Cbd:         0.00e+00    0.00e+00    0.00e+00    0.00e+00
Cbs:         0.00e+00    0.00e+00    0.00e+00    0.00e+00
Cgsov:       0.00e+00    0.00e+00    0.00e+00    0.00e+00
Cgdov:       0.00e+00    0.00e+00    0.00e+00    0.00e+00
Cgbov:       0.00e+00    0.00e+00    0.00e+00    0.00e+00
Cgs:         2.83e-13    2.30e-12    2.30e-12    2.30e-12
Cgd:         0.00e+00    0.00e+00    0.00e+00    0.00e+00
Cgb:         1.51e-12    0.00e+00    0.00e+00    0.00e+00



Date: Mon Apr 10 23:26:50 2023
Total elapsed time: 0.443 seconds.

tnom = 27
temp = 27
method = trap
totiter = 830
traniter = 0
tranpoints = 0
accept = 0
rejected = 0
matrix size = 244
fillins = 389
solver = Normal

