Circuit: ** ISIM circuit **

Direct Newton iteration for .op point skipped.
Gmin stepping method for .op point skipped.
Starting source stepping with srcstepmethod=0
Source Step = 3.0303%
Source Step = 33.3333%
vernier = 0.25
Source Step = 37.8788%
Source Step = 45.4545%
Source Step = 53.0303%
Source Step = 60.6061%
Source Step = 68.1818%
vernier = 0.375
Source Step = 79.1667%
Source Step = 90.5303%
Source stepping succeeded in finding the operating point.

Semiconductor Device Operating Points:
                        --- Diodes ---
Name:    d:u5:n2     d:u5:n1     d:u5:q2     d:u5:q1     d:u5:p
Model:    u5:dy       u5:dy       u5:dx       u5:dx       u5:dx
Id:      1.94e-06    1.94e-06   -6.41e-13    4.56e-05   -1.30e-11
Vd:      6.00e-01    6.00e-01   -6.41e-01    6.41e-01   -1.30e+01
Req:     1.33e+04    1.33e+04    1.00e+12    5.67e+02    1.00e+12
CAP:     0.00e+00    0.00e+00    0.00e+00    0.00e+00    0.00e+00

Name:    d:u5:ln     d:u5:lp     d:u5:e      d:u5:c      d:u4:n2
Model:    u5:dx       u5:dx       u5:dx       u5:dx       u4:dy
Id:     -1.00e-11   -9.96e-12   -1.49e-12   -9.56e-12    1.94e-06
Vd:     -1.00e+01   -9.95e+00   -1.49e+00   -9.56e+00    6.00e-01
Req:     1.00e+12    1.00e+12    1.00e+12    1.00e+12    1.33e+04
CAP:     0.00e+00    0.00e+00    0.00e+00    0.00e+00    0.00e+00

Name:    d:u4:n1     d:u4:q2     d:u4:q1     d:u4:p      d:u4:ln
Model:    u4:dy       u4:dx       u4:dx       u4:dx       u4:dx
Id:      1.94e-06   -6.41e-13    4.56e-05   -1.30e-11   -1.00e-11
Vd:      6.00e-01   -6.41e-01    6.41e-01   -1.30e+01   -1.00e+01
Req:     1.33e+04    1.00e+12    5.67e+02    1.00e+12    1.00e+12
CAP:     0.00e+00    0.00e+00    0.00e+00    0.00e+00    0.00e+00

Name:    d:u4:lp     d:u4:e      d:u4:c      d:u3:n2     d:u3:n1
Model:    u4:dx       u4:dx       u4:dx       u3:dy       u3:dy
Id:     -9.96e-12   -1.49e-12   -9.56e-12    1.94e-06    1.94e-06
Vd:     -9.95e+00   -1.49e+00   -9.56e+00    6.00e-01    6.00e-01
Req:     1.00e+12    1.00e+12    1.00e+12    1.33e+04    1.33e+04
CAP:     0.00e+00    0.00e+00    0.00e+00    0.00e+00    0.00e+00

Name:    d:u3:q2     d:u3:q1     d:u3:p      d:u3:ln     d:u3:lp
Model:    u3:dx       u3:dx       u3:dx       u3:dx       u3:dx
Id:     -6.75e-13    1.66e-04   -1.30e-11   -1.02e-11   -9.83e-12
Vd:     -6.74e-01    6.74e-01   -1.30e+01   -1.02e+01   -9.83e+00
Req:     1.00e+12    1.56e+02    1.00e+12    1.00e+12    1.00e+12
CAP:     0.00e+00    0.00e+00    0.00e+00    0.00e+00    0.00e+00

Name:    d:u3:e      d:u3:c      d:u8:n2     d:u8:n1     d:u8:q2
Model:    u3:dx       u3:dx       u8:dy       u8:dy       u8:dx
Id:     -4.51e-12   -6.55e-12    1.94e-06    1.94e-06   -5.94e-13
Vd:     -4.50e+00   -6.55e+00    6.00e-01    6.00e-01   -5.93e-01
Req:     1.00e+12    1.00e+12    1.33e+04    1.33e+04    1.00e+12
CAP:     0.00e+00    0.00e+00    0.00e+00    0.00e+00    0.00e+00

Name:    d:u8:q1     d:u8:p      d:u8:ln     d:u8:lp     d:u8:e
Model:    u8:dx       u8:dx       u8:dx       u8:dx       u8:dx
Id:      7.28e-06   -1.30e-11   -1.00e-11   -9.99e-12   -7.17e-13
Vd:      5.93e-01   -1.30e+01   -1.00e+01   -9.99e+00   -7.17e-01
Req:     3.55e+03    1.00e+12    1.00e+12    1.00e+12    1.00e+12
CAP:     0.00e+00    0.00e+00    0.00e+00    0.00e+00    0.00e+00

Name:    d:u8:c      d:u7:n2     d:u7:n1     d:u7:q2     d:u7:q1
Model:    u8:dx       u7:dy       u7:dy       u7:dx       u7:dx
Id:     -1.03e-11    1.94e-06    1.94e-06   -5.94e-13    7.28e-06
Vd:     -1.03e+01    6.00e-01    6.00e-01   -5.93e-01    5.93e-01
Req:     1.00e+12    1.33e+04    1.33e+04    1.00e+12    3.55e+03
CAP:     0.00e+00    0.00e+00    0.00e+00    0.00e+00    0.00e+00

Name:    d:u7:p      d:u7:ln     d:u7:lp     d:u7:e      d:u7:c
Model:    u7:dx       u7:dx       u7:dx       u7:dx       u7:dx
Id:     -1.30e-11   -1.00e-11   -9.99e-12   -7.18e-13   -1.03e-11
Vd:     -1.30e+01   -1.00e+01   -9.99e+00   -7.17e-01   -1.03e+01
Req:     1.00e+12    1.00e+12    1.00e+12    1.00e+12    1.00e+12
CAP:     0.00e+00    0.00e+00    0.00e+00    0.00e+00    0.00e+00

Name:    d:u6:n2     d:u6:n1     d:u6:q2     d:u6:q1     d:u6:p
Model:    u6:dy       u6:dy       u6:dx       u6:dx       u6:dx
Id:      1.94e-06    1.94e-06   -5.94e-13    7.28e-06   -1.30e-11
Vd:      6.00e-01    6.00e-01   -5.93e-01    5.93e-01   -1.30e+01
Req:     1.33e+04    1.33e+04    1.00e+12    3.55e+03    1.00e+12
CAP:     0.00e+00    0.00e+00    0.00e+00    0.00e+00    0.00e+00

Name:    d:u6:ln     d:u6:lp     d:u6:e      d:u6:c      d:u1:n2
Model:    u6:dx       u6:dx       u6:dx       u6:dx       u1:dy
Id:     -1.00e-11   -9.99e-12   -7.17e-13   -1.03e-11    1.94e-06
Vd:     -1.00e+01   -9.99e+00   -7.17e-01   -1.03e+01    6.00e-01
Req:     1.00e+12    1.00e+12    1.00e+12    1.00e+12    1.33e+04
CAP:     0.00e+00    0.00e+00    0.00e+00    0.00e+00    0.00e+00

Name:    d:u1:n1     d:u1:q2     d:u1:q1     d:u1:p      d:u1:ln
Model:    u1:dy       u1:dx       u1:dx       u1:dx       u1:dx
Id:      1.94e-06   -6.51e-13    6.71e-05   -1.30e-11   -1.01e-11
Vd:      6.00e-01   -6.51e-01    6.51e-01   -1.30e+01   -1.01e+01
Req:     1.33e+04    1.00e+12    3.86e+02    1.00e+12    1.00e+12
CAP:     0.00e+00    0.00e+00    0.00e+00    0.00e+00    0.00e+00

Name:    d:u1:lp     d:u1:e      d:u1:c      d:q5:4      d:q5:3
Model:    u1:dx       u1:dx       u1:dx      q5:md3      q5:md2
Id:     -9.93e-12   -3.71e-12   -7.34e-12   -1.03e-10   -1.48e-10
Vd:     -9.93e+00   -3.71e+00   -7.34e+00   -3.06e+00   -3.06e+00
Req:     1.00e+12    1.00e+12    1.00e+12    1.00e+12    1.00e+12
CAP:     0.00e+00    0.00e+00    0.00e+00    0.00e+00    0.00e+00

Name:    d:q5:2      d:q5:1      d:q6:1      d:q3:4      d:q3:3
Model:   q5:md1       q5:md     q6:dn0124    q3:md3      q3:md2
Id:     -3.06e-12   -9.47e-09   -6.50e-12   -1.03e-10   -1.48e-10
Vd:     -3.06e+00   -3.08e+00   -3.43e+00   -3.06e+00   -3.06e+00
Req:     1.00e+12    1.00e+12    1.00e+12    1.00e+12    1.00e+12
CAP:     1.18e-11    1.23e-11    0.00e+00    0.00e+00    0.00e+00

Name:    d:q3:2      d:q3:1      d:q4:1      d:q7:4      d:q7:3
Model:   q3:md1       q3:md     q4:dn0124    q7:md3      q7:md2
Id:     -3.06e-12   -9.47e-09   -6.50e-12    3.11e+00    3.11e+00
Vd:     -3.06e+00   -3.08e+00   -3.43e+00    2.50e-01    2.50e-01
Req:     1.00e+12    1.00e+12    1.00e+12    3.32e-03    3.32e-03
CAP:     1.18e-11    1.23e-11    0.00e+00    0.00e+00    0.00e+00

Name:    d:q7:2      d:q7:1      d:q8:1      d:u2:4      d:u2:3
Model:   q7:md1       q7:md     q8:dn0124  u2:dopamp2  u2:dopamp2
Id:      2.50e-13   -8.46e-09   -4.37e-14   -2.57e-12   -6.06e-12
Vd:      2.50e-01   -8.70e-02   -3.77e-04   -2.57e+00   -6.06e+00
Req:     1.00e+12    3.86e+07    8.69e+09    1.00e+12    1.00e+12
CAP:     1.00e-10    2.16e-11    0.00e+00    0.00e+00    0.00e+00

Name:    d:u2:2      d:u2:1
Model: u2:dopamp1  u2:dopamp1
Id:     -1.77e-13    4.07e-12
Vd:     -1.03e-01    1.03e-01
Req:     9.49e+11    6.35e+09
CAP:     0.00e+00    0.00e+00

                        --- Bipolar Transistors ---
Name:     q:u5:2      q:u5:1      q:u4:2      q:u4:1      q:u3:2
Model:     u5:qx       u5:qx       u4:qx       u4:qx       u3:qx
Ib:      -5.07e-08   -5.06e-08   -5.07e-08   -5.06e-08   -5.01e-08
Ic:      -3.04e-06   -3.03e-06   -3.04e-06   -3.03e-06   -3.01e-06
Vbe:     -5.71e-01   -5.70e-01   -5.71e-01   -5.70e-01   -5.70e-01
Vbc:      2.10e+00    2.10e+00    2.10e+00    2.10e+00    5.11e+00
Vce:     -2.67e+00   -2.67e+00   -2.67e+00   -2.67e+00   -5.68e+00
BetaDC:   6.00e+01    6.00e+01    6.00e+01    6.00e+01    6.00e+01
Gm:       1.18e-04    1.17e-04    1.18e-04    1.17e-04    1.16e-04
Rpi:      5.11e+05    5.11e+05    5.11e+05    5.11e+05    5.16e+05
Rx:       0.00e+00    0.00e+00    0.00e+00    0.00e+00    0.00e+00
Ro:       4.98e+48    5.01e+48    4.99e+48    5.02e+48    0.00e+00
Cbe:      0.00e+00    0.00e+00    0.00e+00    0.00e+00    0.00e+00
Cbc:      0.00e+00    0.00e+00    0.00e+00    0.00e+00    0.00e+00
Cjs:      0.00e+00    0.00e+00    0.00e+00    0.00e+00    0.00e+00
BetaAC:   6.00e+01    6.00e+01    6.00e+01    6.00e+01    6.00e+01
Cbx:      0.00e+00    0.00e+00    0.00e+00    0.00e+00    0.00e+00
Ft:       0.00e+00    0.00e+00    0.00e+00    0.00e+00    0.00e+00

Name:     q:u3:1      q:u8:2      q:u8:1      q:u7:2      q:u7:1
Model:     u3:qx       u8:qx       u8:qx       u7:qx       u7:qx
Ib:      -5.01e-08   -5.08e-08   -5.07e-08   -5.08e-08   -5.07e-08
Ic:      -3.01e-06   -3.05e-06   -3.04e-06   -3.05e-06   -3.04e-06
Vbe:     -5.70e-01   -5.71e-01   -5.71e-01   -5.71e-01   -5.71e-01
Vbc:      5.11e+00    1.32e+00    1.32e+00    1.32e+00    1.32e+00
Vce:     -5.68e+00   -1.89e+00   -1.89e+00   -1.89e+00   -1.89e+00
BetaDC:   6.00e+01    6.00e+01    6.00e+01    6.00e+01    6.00e+01
Gm:       1.16e-04    1.18e-04    1.18e-04    1.18e-04    1.18e-04
Rpi:      5.16e+05    5.09e+05    5.10e+05    5.09e+05    5.10e+05
Rx:       0.00e+00    0.00e+00    0.00e+00    0.00e+00    0.00e+00
Ro:       0.00e+00    4.78e+35    4.81e+35    4.79e+35    4.83e+35
Cbe:      0.00e+00    0.00e+00    0.00e+00    0.00e+00    0.00e+00
Cbc:      0.00e+00    0.00e+00    0.00e+00    0.00e+00    0.00e+00
Cjs:      0.00e+00    0.00e+00    0.00e+00    0.00e+00    0.00e+00
BetaAC:   6.00e+01    6.00e+01    6.00e+01    6.00e+01    6.00e+01
Cbx:      0.00e+00    0.00e+00    0.00e+00    0.00e+00    0.00e+00
Ft:       0.00e+00    0.00e+00    0.00e+00    0.00e+00    0.00e+00

Name:     q:u6:2      q:u6:1      q:u1:2      q:u1:1           qq2
Model:     u6:qx       u6:qx       u1:qx       u1:qx    qbd135__bjt_npn__1
Ib:      -5.08e-08   -5.07e-08   -5.03e-08   -5.02e-08       2.75e-03
Ic:      -3.05e-06   -3.04e-06   -3.02e-06   -3.01e-06       2.96e-01
Vbe:     -5.71e-01   -5.71e-01   -5.70e-01   -5.70e-01       8.08e-01
Vbc:      1.32e+00    1.32e+00    4.31e+00    4.31e+00      -7.75e+00
Vce:     -1.89e+00   -1.89e+00   -4.88e+00   -4.88e+00       8.56e+00
BetaDC:   6.00e+01    6.00e+01    6.00e+01    6.00e+01       1.08e+02
Gm:       1.18e-04    1.18e-04    1.17e-04    1.17e-04       1.00e+01
Rpi:      5.09e+05    5.10e+05    5.14e+05    5.15e+05       9.32e+00
Rx:       0.00e+00    0.00e+00    0.00e+00    0.00e+00       5.00e-01
Ro:       4.78e+35    4.82e+35    7.61e+85    7.63e+85       7.68e+02
Cbe:      0.00e+00    0.00e+00    0.00e+00    0.00e+00       7.65e-09
Cbc:      0.00e+00    0.00e+00    0.00e+00    0.00e+00       9.39e-12
Cjs:      0.00e+00    0.00e+00    0.00e+00    0.00e+00       0.00e+00
BetaAC:   6.00e+01    6.00e+01    6.00e+01    6.00e+01       9.35e+01
Cbx:      0.00e+00    0.00e+00    0.00e+00    0.00e+00       0.00e+00
Ft:       0.00e+00    0.00e+00    0.00e+00    0.00e+00       2.08e+08

Name:     q:u2:t2     q:u2:t1          qdut
Model:  u2:qopamp2  u2:qopamp1  2n3415__bjt_npn__1
Ib:       5.86e-08    7.52e-08       3.01e-02
Ic:       7.56e-06    7.55e-06       2.99e-01
Vbe:      5.88e-01    5.89e-01       1.14e+00
Vbc:     -1.02e+01   -1.02e+01       7.75e-01
Vce:      1.08e+01    1.08e+01       3.67e-01
BetaDC:   1.29e+02    1.00e+02       9.92e+00
Gm:       2.92e-04    2.92e-04       7.09e+00
Rpi:      4.42e+05    3.44e+05       6.25e+00
Rx:       0.00e+00    0.00e+00       1.00e+01
Ro:       7.97e+06    7.98e+06       9.99e-01
Cbe:      0.00e+00    0.00e+00       3.39e-08
Cbc:      0.00e+00    0.00e+00       3.12e-09
Cjs:      0.00e+00    0.00e+00       0.00e+00
BetaAC:   1.29e+02    1.00e+02       4.43e+01
Cbx:      0.00e+00    0.00e+00       0.00e+00
Ft:       0.00e+00    0.00e+00       3.05e+07

                        --- MOSFET Transistors ---
Name:        m:q5:1      m:q6:1      m:q3:1      m:q4:1      m:q7:1
Model:        q5:mm     q6:mn0124     q3:mm     q4:mn0124     q7:mm
Id:         -6.15e-12    6.86e-12   -6.15e-12    6.86e-12   -2.99e-01
Vgs:        -1.43e-02    0.00e+00   -1.43e-02    0.00e+00   -3.39e+00
Vds:        -3.08e+00    3.43e+00   -3.08e+00    3.43e+00   -2.86e-02
Vbs:         0.00e+00    0.00e+00    0.00e+00    0.00e+00    0.00e+00
Vth:        -8.68e-01    1.55e+00   -8.68e-01    1.55e+00   -8.68e-01
Vdsat:      -0.00e+00    0.00e+00   -0.00e+00    0.00e+00   -2.52e+00
Gm:          0.00e+00    0.00e+00    0.00e+00    0.00e+00    1.19e-01
Gds:         0.00e+00    0.00e+00    0.00e+00    0.00e+00    1.04e+01
Gmb:         0.00e+00    0.00e+00    0.00e+00    0.00e+00    0.00e+00
Cbd:         0.00e+00    1.71e-11    0.00e+00    1.71e-11    0.00e+00
Cbs:         0.00e+00    0.00e+00    0.00e+00    0.00e+00    0.00e+00
Cgsov:       1.38e-10    6.00e-15    1.38e-10    6.00e-15    1.38e-10
Cgdov:       1.16e-11    2.00e-16    1.16e-11    2.00e-16    1.16e-11
Cgbov:       0.00e+00    0.00e+00    0.00e+00    0.00e+00    0.00e+00
Cgs:         0.00e+00    0.00e+00    0.00e+00    0.00e+00    0.00e+00
Cgd:         0.00e+00    0.00e+00    0.00e+00    0.00e+00    0.00e+00
Cgb:         0.00e+00    0.00e+00    0.00e+00    0.00e+00    0.00e+00

Name:        m:q8:1         mu9            mu10
Model:      q8:mn0124  tn2501__def__1 tn2501__def__1
Id:          3.44e-05     7.72e-12       3.01e-02
Vgs:         5.00e+00    -1.14e+00       8.45e-01
Vds:         3.77e-04     3.86e+00       8.45e-01
Vbs:         0.00e+00     0.00e+00       0.00e+00
Vth:         1.55e+00     6.32e-01       6.47e-01
Vdsat:       3.45e+00     3.32e-02       2.14e-01
Gm:          9.98e-06     1.06e-23       2.59e-01
Gds:         3.71e+00     5.08e-26       1.24e-03
Gmb:         0.00e+00     4.02e-24       2.93e-02
Cbd:         3.60e-11     0.00e+00       0.00e+00
Cbs:         0.00e+00     0.00e+00       0.00e+00
Cgsov:       6.00e-15     1.48e-10       1.48e-10
Cgdov:       2.00e-16     1.87e-11       1.87e-11
Cgbov:       0.00e+00     0.00e+00       0.00e+00
Cgs:         0.00e+00     0.00e+00       3.74e-11
Cgd:         0.00e+00     0.00e+00       0.00e+00
Cgb:         0.00e+00     5.61e-11       0.00e+00



Date: Thu Feb 16 16:40:07 2023
Total elapsed time: 0.310 seconds.

tnom = 27
temp = 27
method = trap
totiter = 600
traniter = 0
tranpoints = 0
accept = 0
rejected = 0
matrix size = 406
fillins = 769
solver = Normal
Thread vector: 29.5/17.5[4] 0.0/0.0[0] 10.1/7.7[4] 2.7/2.1[4]  2592/500
Matrix Compiler1: 59.94 KB object code size
Matrix Compiler2: 45.91 KB object code size  9.3/8.3/[4.6]

