Circuit: ** ISIM circuit **

Direct Newton iteration for .op point skipped.
Gmin stepping method for .op point skipped.
Starting source stepping with srcstepmethod=0
Source Step = 3.0303%
vernier = 0.25
Source Step = 7.57576%
Source Step = 15.1515%
Source Step = 22.7273%
Source Step = 30.303%
Source Step = 37.8788%
vernier = 0.375
Source Step = 48.8636%
Source Step = 60.2273%
Source Step = 71.5909%
Source Step = 82.9545%
Source Step = 94.3182%
vernier = 0.5625
Source stepping succeeded in finding the operating point.

Semiconductor Device Operating Points:
                        --- Diodes ---
Name:    d:u5:n2     d:u5:n1     d:u5:q2     d:u5:q1     d:u5:p
Model:    u5:dy       u5:dy       u5:dx       u5:dx       u5:dx
Id:      1.94e-06    1.94e-06   -6.48e-13    5.99e-05   -1.30e-11
Vd:      6.00e-01    6.00e-01   -6.48e-01    6.48e-01   -1.30e+01
Req:     1.33e+04    1.33e+04    1.00e+12    4.32e+02    1.00e+12
CAP:     0.00e+00    0.00e+00    0.00e+00    0.00e+00    0.00e+00

Name:    d:u5:ln     d:u5:lp     d:u5:e      d:u5:c      d:u4:n2
Model:    u5:dx       u5:dx       u5:dx       u5:dx       u4:dy
Id:     -1.01e-11   -9.94e-12   -1.85e-12   -9.20e-12    1.94e-06
Vd:     -1.01e+01   -9.94e+00   -1.85e+00   -9.20e+00    6.00e-01
Req:     1.00e+12    1.00e+12    1.00e+12    1.00e+12    1.33e+04
CAP:     0.00e+00    0.00e+00    0.00e+00    0.00e+00    0.00e+00

Name:    d:u4:n1     d:u4:q2     d:u4:q1     d:u4:p      d:u4:ln
Model:    u4:dy       u4:dx       u4:dx       u4:dx       u4:dx
Id:      1.94e-06   -6.17e-13    1.76e-05   -1.30e-11   -1.00e-11
Vd:      6.00e-01   -6.16e-01    6.16e-01   -1.30e+01   -1.00e+01
Req:     1.33e+04    1.00e+12    1.47e+03    1.00e+12    1.00e+12
CAP:     0.00e+00    0.00e+00    0.00e+00    0.00e+00    0.00e+00

Name:    d:u4:lp     d:u4:e      d:u4:c      d:u3:n2     d:u3:n1
Model:    u4:dx       u4:dx       u4:dx       u3:dy       u3:dy
Id:     -9.98e-12   -7.92e-13   -1.03e-11    1.94e-06    1.94e-06
Vd:     -9.98e+00   -7.91e-01   -1.03e+01    6.00e-01    6.00e-01
Req:     1.00e+12    1.00e+12    1.00e+12    1.33e+04    1.33e+04
CAP:     0.00e+00    0.00e+00    0.00e+00    0.00e+00    0.00e+00

Name:    d:u3:q2     d:u3:q1     d:u3:p      d:u3:ln     d:u3:lp
Model:    u3:dx       u3:dx       u3:dx       u3:dx       u3:dx
Id:     -6.41e-13    4.53e-05   -1.30e-11   -1.00e-11   -9.96e-12
Vd:     -6.40e-01    6.40e-01   -1.30e+01   -1.00e+01   -9.95e+00
Req:     1.00e+12    5.71e+02    1.00e+12    1.00e+12    1.00e+12
CAP:     0.00e+00    0.00e+00    0.00e+00    0.00e+00    0.00e+00

Name:    d:u3:e      d:u3:c      d:u8:n2     d:u8:n1     d:u8:q2
Model:    u3:dx       u3:dx       u8:dy       u8:dy       u8:dx
Id:     -1.48e-12   -9.57e-12    1.94e-06    1.94e-06   -6.43e-13
Vd:     -1.48e+00   -9.57e+00    6.00e-01    6.00e-01   -6.42e-01
Req:     1.00e+12    1.00e+12    1.33e+04    1.33e+04    1.00e+12
CAP:     0.00e+00    0.00e+00    0.00e+00    0.00e+00    0.00e+00

Name:    d:u8:q1     d:u8:p      d:u8:ln     d:u8:lp     d:u8:e
Model:    u8:dx       u8:dx       u8:dx       u8:dx       u8:dx
Id:      4.85e-05   -1.30e-11   -1.00e-11   -9.95e-12   -2.78e-12
Vd:      6.42e-01   -1.30e+01   -1.00e+01   -9.95e+00   -2.78e+00
Req:     5.33e+02    1.00e+12    1.00e+12    1.00e+12    1.00e+12
CAP:     0.00e+00    0.00e+00    0.00e+00    0.00e+00    0.00e+00

Name:    d:u8:c      d:u7:n2     d:u7:n1     d:u7:q2     d:u7:q1
Model:    u8:dx       u7:dy       u7:dy       u7:dx       u7:dx
Id:     -8.27e-12    1.94e-06    1.94e-06   -6.43e-13    4.85e-05
Vd:     -8.27e+00    6.00e-01    6.00e-01   -6.42e-01    6.42e-01
Req:     1.00e+12    1.33e+04    1.33e+04    1.00e+12    5.33e+02
CAP:     0.00e+00    0.00e+00    0.00e+00    0.00e+00    0.00e+00

Name:    d:u7:p      d:u7:ln     d:u7:lp     d:u7:e      d:u7:c
Model:    u7:dx       u7:dx       u7:dx       u7:dx       u7:dx
Id:     -1.30e-11   -1.00e-11   -9.95e-12   -2.78e-12   -8.27e-12
Vd:     -1.30e+01   -1.00e+01   -9.95e+00   -2.78e+00   -8.27e+00
Req:     1.00e+12    1.00e+12    1.00e+12    1.00e+12    1.00e+12
CAP:     0.00e+00    0.00e+00    0.00e+00    0.00e+00    0.00e+00

Name:    d:u6:n2     d:u6:n1     d:u6:q2     d:u6:q1     d:u6:p
Model:    u6:dy       u6:dy       u6:dx       u6:dx       u6:dx
Id:      1.94e-06    1.94e-06   -6.43e-13    4.85e-05   -1.30e-11
Vd:      6.00e-01    6.00e-01   -6.42e-01    6.42e-01   -1.30e+01
Req:     1.33e+04    1.33e+04    1.00e+12    5.33e+02    1.00e+12
CAP:     0.00e+00    0.00e+00    0.00e+00    0.00e+00    0.00e+00

Name:    d:u6:ln     d:u6:lp     d:u6:e      d:u6:c      d:u1:n2
Model:    u6:dx       u6:dx       u6:dx       u6:dx       u1:dy
Id:     -1.00e-11   -9.95e-12   -2.78e-12   -8.27e-12    1.94e-06
Vd:     -1.00e+01   -9.95e+00   -2.78e+00   -8.27e+00    6.00e-01
Req:     1.00e+12    1.00e+12    1.00e+12    1.00e+12    1.33e+04
CAP:     0.00e+00    0.00e+00    0.00e+00    0.00e+00    0.00e+00

Name:    d:u1:n1     d:u1:q2     d:u1:q1     d:u1:p      d:u1:ln
Model:    u1:dy       u1:dx       u1:dx       u1:dx       u1:dx
Id:      1.94e-06   -6.61e-13    9.66e-05   -1.30e-11   -1.01e-11
Vd:      6.00e-01   -6.60e-01    6.60e-01   -1.30e+01   -1.01e+01
Req:     1.33e+04    1.00e+12    2.68e+02    1.00e+12    1.00e+12
CAP:     0.00e+00    0.00e+00    0.00e+00    0.00e+00    0.00e+00

Name:    d:u1:lp     d:u1:e      d:u1:c      d:q5:4      d:q5:3
Model:    u1:dx       u1:dx       u1:dx      q5:md3      q5:md2
Id:     -9.90e-12   -5.18e-12   -5.87e-12   -1.02e-10   -1.48e-10
Vd:     -9.90e+00   -5.18e+00   -5.87e+00   -2.45e+00   -2.45e+00
Req:     1.00e+12    1.00e+12    1.00e+12    1.00e+12    1.00e+12
CAP:     0.00e+00    0.00e+00    0.00e+00    0.00e+00    0.00e+00

Name:    d:q5:2      d:q5:1      d:q6:1      d:q3:4      d:q3:3
Model:   q5:md1       q5:md     q6:dn0124    q3:md3      q3:md2
Id:     -2.45e-12   -9.47e-09   -7.94e-12   -1.02e-10   -1.48e-10
Vd:     -2.45e+00   -2.47e+00   -4.87e+00   -2.45e+00   -2.45e+00
Req:     1.00e+12    1.00e+12    1.00e+12    1.00e+12    1.00e+12
CAP:     1.40e-11    1.34e-11    0.00e+00    0.00e+00    0.00e+00

Name:    d:q3:2      d:q3:1      d:q4:1      d:q7:4      d:q7:3
Model:   q3:md1       q3:md     q4:dn0124    q7:md3      q7:md2
Id:     -2.45e-12   -9.47e-09   -7.94e-12    4.58e+00    4.58e+00
Vd:     -2.45e+00   -2.47e+00   -4.87e+00    2.54e-01    2.54e-01
Req:     1.00e+12    1.00e+12    1.00e+12    2.26e-03    2.26e-03
CAP:     1.40e-11    1.34e-11    0.00e+00    0.00e+00    0.00e+00

Name:    d:q7:2      d:q7:1      d:q8:1      d:u2:4      d:u2:3
Model:   q7:md1       q7:md     q8:dn0124  u2:dopamp2  u2:dopamp2
Id:      2.54e-13   -7.53e-09   -6.20e-14   -4.00e-12   -4.63e-12
Vd:      2.54e-01   -6.15e-02   -5.36e-04   -4.00e+00   -4.63e+00
Req:     1.00e+12    2.00e+07    8.74e+09    1.00e+12    1.00e+12
CAP:     1.01e-10    2.18e-11    0.00e+00    0.00e+00    0.00e+00

Name:    d:u2:2      d:u2:1
Model: u2:dopamp1  u2:dopamp1
Id:     -1.53e-13    1.73e-12
Vd:     -8.10e-02    8.10e-02
Req:     8.87e+11    1.47e+10
CAP:     0.00e+00    0.00e+00

                        --- Bipolar Transistors ---
Name:     q:u5:2      q:u5:1      q:u4:2      q:u4:1      q:u3:2
Model:     u5:qx       u5:qx       u4:qx       u4:qx       u3:qx
Ib:      -5.06e-08   -5.05e-08   -5.08e-08   -5.07e-08   -5.07e-08
Ic:      -3.04e-06   -3.03e-06   -3.05e-06   -3.04e-06   -3.04e-06
Vbe:     -5.70e-01   -5.70e-01   -5.71e-01   -5.71e-01   -5.71e-01
Vbc:      2.45e+00    2.45e+00    1.39e+00    1.40e+00    2.09e+00
Vce:     -3.02e+00   -3.02e+00   -1.97e+00   -1.97e+00   -2.66e+00
BetaDC:   6.00e+01    6.00e+01    6.00e+01    6.00e+01    6.00e+01
Gm:       1.17e-04    1.17e-04    1.18e-04    1.18e-04    1.18e-04
Rpi:      5.11e+05    5.12e+05    5.09e+05    5.10e+05    5.11e+05
Rx:       0.00e+00    0.00e+00    0.00e+00    0.00e+00    0.00e+00
Ro:       5.00e+54    5.03e+54    8.55e+36    8.60e+36    3.51e+48
Cbe:      0.00e+00    0.00e+00    0.00e+00    0.00e+00    0.00e+00
Cbc:      0.00e+00    0.00e+00    0.00e+00    0.00e+00    0.00e+00
Cjs:      0.00e+00    0.00e+00    0.00e+00    0.00e+00    0.00e+00
BetaAC:   6.00e+01    6.00e+01    6.00e+01    6.00e+01    6.00e+01
Cbx:      0.00e+00    0.00e+00    0.00e+00    0.00e+00    0.00e+00
Ft:       0.00e+00    0.00e+00    0.00e+00    0.00e+00    0.00e+00

Name:     q:u3:1      q:u8:2      q:u8:1      q:u7:2      q:u7:1
Model:     u3:qx       u8:qx       u8:qx       u7:qx       u7:qx
Ib:      -5.06e-08   -5.04e-08   -5.04e-08   -5.04e-08   -5.04e-08
Ic:      -3.03e-06   -3.03e-06   -3.02e-06   -3.03e-06   -3.02e-06
Vbe:     -5.70e-01   -5.70e-01   -5.70e-01   -5.70e-01   -5.70e-01
Vbc:      2.09e+00    3.38e+00    3.38e+00    3.38e+00    3.38e+00
Vce:     -2.66e+00   -3.95e+00   -3.95e+00   -3.95e+00   -3.95e+00
BetaDC:   6.00e+01    6.00e+01    6.00e+01    6.00e+01    6.00e+01
Gm:       1.17e-04    1.17e-04    1.17e-04    1.17e-04    1.17e-04
Rpi:      5.11e+05    5.13e+05    5.13e+05    5.13e+05    5.13e+05
Rx:       0.00e+00    0.00e+00    0.00e+00    0.00e+00    0.00e+00
Ro:       3.53e+48    1.89e+70    1.90e+70    1.90e+70    1.90e+70
Cbe:      0.00e+00    0.00e+00    0.00e+00    0.00e+00    0.00e+00
Cbc:      0.00e+00    0.00e+00    0.00e+00    0.00e+00    0.00e+00
Cjs:      0.00e+00    0.00e+00    0.00e+00    0.00e+00    0.00e+00
BetaAC:   6.00e+01    6.00e+01    6.00e+01    6.00e+01    6.00e+01
Cbx:      0.00e+00    0.00e+00    0.00e+00    0.00e+00    0.00e+00
Ft:       0.00e+00    0.00e+00    0.00e+00    0.00e+00    0.00e+00

Name:     q:u6:2      q:u6:1      q:u1:2      q:u1:1           qq2
Model:     u6:qx       u6:qx       u1:qx       u1:qx    qbd135__bjt_npn__1
Ib:      -5.04e-08   -5.04e-08   -5.00e-08   -5.00e-08       2.16e-03
Ic:      -3.03e-06   -3.02e-06   -3.00e-06   -3.00e-06       2.38e-01
Vbe:     -5.70e-01   -5.70e-01   -5.70e-01   -5.70e-01       7.92e-01
Vbc:      3.38e+00    3.38e+00    5.79e+00    5.79e+00      -6.31e+00
Vce:     -3.95e+00   -3.95e+00   -6.36e+00   -6.36e+00       7.11e+00
BetaDC:   6.00e+01    6.00e+01    6.00e+01    6.00e+01       1.10e+02
Gm:       1.17e-04    1.17e-04    1.16e-04    1.16e-04       8.26e+00
Rpi:      5.13e+05    5.13e+05    5.17e+05    5.17e+05       1.19e+01
Rx:       0.00e+00    0.00e+00    0.00e+00    0.00e+00       5.00e-01
Ro:       1.89e+70    1.90e+70    0.00e+00    0.00e+00       9.49e+02
Cbe:      0.00e+00    0.00e+00    0.00e+00    0.00e+00       6.34e-09
Cbc:      0.00e+00    0.00e+00    0.00e+00    0.00e+00       1.02e-11
Cjs:      0.00e+00    0.00e+00    0.00e+00    0.00e+00       0.00e+00
BetaAC:   6.00e+01    6.00e+01    6.00e+01    6.00e+01       9.79e+01
Cbx:      0.00e+00    0.00e+00    0.00e+00    0.00e+00       0.00e+00
Ft:       0.00e+00    0.00e+00    0.00e+00    0.00e+00       2.07e+08

Name:     q:u2:t2     q:u2:t1          qdut
Model:  u2:qopamp2  u2:qopamp1  2n3906__bjt_pnp__1
Ib:       5.95e-08    7.63e-08      -4.72e-03
Ic:       7.59e-06    7.57e-06      -2.36e-01
Vbe:      5.89e-01    5.90e-01      -9.28e-01
Vbc:     -9.52e+00   -9.52e+00       1.50e+00
Vce:      1.01e+01    1.01e+01      -2.43e+00
BetaDC:   1.28e+02    9.92e+01       4.99e+01
Gm:       2.93e-04    2.93e-04       5.24e+00
Rpi:      4.35e+05    3.39e+05       5.48e+00
Rx:       0.00e+00    0.00e+00       1.00e+01
Ro:       7.84e+06    7.86e+06       8.34e+01
Cbe:      0.00e+00    0.00e+00       5.63e-09
Cbc:      0.00e+00    0.00e+00       6.05e-12
Cjs:      0.00e+00    0.00e+00       0.00e+00
BetaAC:   1.27e+02    9.92e+01       2.87e+01
Cbx:      0.00e+00    0.00e+00       0.00e+00
Ft:       0.00e+00    0.00e+00       1.48e+08

                        --- MOSFET Transistors ---
Name:        m:q5:1      m:q6:1      m:q3:1      m:q4:1      m:q7:1
Model:        q5:mm     q6:mn0124     q3:mm     q4:mn0124     q7:mm
Id:         -4.93e-12    9.75e-12   -4.93e-12    9.75e-12   -2.41e-01
Vgs:        -2.03e-02    0.00e+00   -2.03e-02    0.00e+00   -4.85e+00
Vds:        -2.47e+00    4.87e+00   -2.47e+00    4.87e+00   -1.45e-02
Vbs:         0.00e+00    0.00e+00    0.00e+00    0.00e+00    0.00e+00
Vth:        -8.68e-01    1.55e+00   -8.68e-01    1.55e+00   -8.68e-01
Vdsat:      -0.00e+00    0.00e+00   -0.00e+00    0.00e+00   -3.98e+00
Gm:          0.00e+00    0.00e+00    0.00e+00    0.00e+00    6.05e-02
Gds:         0.00e+00    0.00e+00    0.00e+00    0.00e+00    1.65e+01
Gmb:         0.00e+00    0.00e+00    0.00e+00    0.00e+00    0.00e+00
Cbd:         0.00e+00    1.49e-11    0.00e+00    1.49e-11    0.00e+00
Cbs:         0.00e+00    0.00e+00    0.00e+00    0.00e+00    0.00e+00
Cgsov:       1.38e-10    6.00e-15    1.38e-10    6.00e-15    1.38e-10
Cgdov:       1.16e-11    2.00e-16    1.16e-11    2.00e-16    1.16e-11
Cgbov:       0.00e+00    0.00e+00    0.00e+00    0.00e+00    0.00e+00
Cgs:         0.00e+00    0.00e+00    0.00e+00    0.00e+00    0.00e+00
Cgd:         0.00e+00    0.00e+00    0.00e+00    0.00e+00    0.00e+00
Cgb:         0.00e+00    0.00e+00    0.00e+00    0.00e+00    0.00e+00

Name:        m:q8:1         mu9            mu10
Model:      q8:mn0124  tn2501__def__1 tn2501__def__1
Id:          4.89e-05    -1.06e-03      -3.66e-03
Vgs:         5.00e+00     4.56e+00      -1.13e+00
Vds:         5.36e-04    -1.56e-03      -6.93e-01
Vbs:         0.00e+00     0.00e+00       0.00e+00
Vth:         1.55e+00     6.50e-01       5.90e-01
Vdsat:       3.45e+00     3.60e+00       3.44e-02
Gm:          1.42e-05     2.68e-04       1.12e-13
Gds:         3.71e+00     4.79e+00       5.37e-16
Gmb:         0.00e+00     3.32e-05       2.28e-14
Cbd:         3.60e-11     0.00e+00       0.00e+00
Cbs:         0.00e+00     0.00e+00       0.00e+00
Cgsov:       6.00e-15     1.48e-10       1.48e-10
Cgdov:       2.00e-16     1.87e-11       1.87e-11
Cgbov:       0.00e+00     0.00e+00       0.00e+00
Cgs:         0.00e+00     2.80e-11       0.00e+00
Cgd:         0.00e+00     2.81e-11       0.00e+00
Cgb:         0.00e+00     0.00e+00       5.61e-11



Date: Thu Feb 23 13:55:21 2023
Total elapsed time: 0.322 seconds.

tnom = 27
temp = 27
method = trap
totiter = 589
traniter = 0
tranpoints = 0
accept = 0
rejected = 0
matrix size = 406
fillins = 929
solver = Normal
Thread vector: 27.9/18.6[4] 0.0/0.0[0] 11.5/8.4[4] 2.7/2.9[1]  2592/500
Matrix Compiler1: 72.55 KB object code size
Matrix Compiler2: 49.03 KB object code size  9.6/8.9/[5.0]

