Circuit: ** ISIM circuit **

Instance "m:q9:2": Length shorter than recommended for a level 1 MOSFET.
Direct Newton iteration for .op point skipped.
Gmin stepping method for .op point skipped.
Starting source stepping with srcstepmethod=0
Source Step = 3.0303%
Source Step = 33.3333%
vernier = 0.25
Source Step = 37.8788%
Source Step = 45.4545%
Source Step = 53.0303%
Source Step = 60.6061%
Source Step = 68.1818%
vernier = 0.375
Source Step = 79.1667%
Source Step = 90.5303%
Source stepping succeeded in finding the operating point.

Semiconductor Device Operating Points:
                        --- Diodes ---
Name:    d:u5:n2     d:u5:n1     d:u5:q2     d:u5:q1     d:u5:p
Model:    u5:dy       u5:dy       u5:dx       u5:dx       u5:dx
Id:      1.94e-06    1.94e-06   -6.31e-13    3.10e-05   -1.30e-11
Vd:      6.00e-01    6.00e-01   -6.31e-01    6.31e-01   -1.30e+01
Req:     1.33e+04    1.33e+04    1.00e+12    8.36e+02    1.00e+12
CAP:     0.00e+00    0.00e+00    0.00e+00    0.00e+00    0.00e+00

Name:    d:u5:ln     d:u5:lp     d:u5:e      d:u5:c      d:u4:n2
Model:    u5:dx       u5:dx       u5:dx       u5:dx       u4:dy
Id:     -1.00e-11   -9.97e-12   -1.13e-12   -9.93e-12    1.94e-06
Vd:     -1.00e+01   -9.97e+00   -1.13e+00   -9.92e+00    6.00e-01
Req:     1.00e+12    1.00e+12    1.00e+12    1.00e+12    1.33e+04
CAP:     0.00e+00    0.00e+00    0.00e+00    0.00e+00    0.00e+00

Name:    d:u4:n1     d:u4:q2     d:u4:q1     d:u4:p      d:u4:ln
Model:    u4:dy       u4:dx       u4:dx       u4:dx       u4:dx
Id:      1.94e-06   -6.76e-13    1.72e-04   -1.30e-11   -1.02e-11
Vd:      6.00e-01   -6.75e-01    6.75e-01   -1.30e+01   -1.02e+01
Req:     1.33e+04    1.00e+12    1.50e+02    1.00e+12    1.00e+12
CAP:     0.00e+00    0.00e+00    0.00e+00    0.00e+00    0.00e+00

Name:    d:u4:lp     d:u4:e      d:u4:c      d:u3:n2     d:u3:n1
Model:    u4:dx       u4:dx       u4:dx       u3:dy       u3:dy
Id:     -9.83e-12   -4.66e-12   -6.39e-12    1.94e-06    1.94e-06
Vd:     -9.83e+00   -4.66e+00   -6.39e+00    6.00e-01    6.00e-01
Req:     1.00e+12    1.00e+12    1.00e+12    1.33e+04    1.33e+04
CAP:     0.00e+00    0.00e+00    0.00e+00    0.00e+00    0.00e+00

Name:    d:u3:q2     d:u3:q1     d:u3:p      d:u3:ln     d:u3:lp
Model:    u3:dx       u3:dx       u3:dx       u3:dx       u3:dx
Id:     -6.31e-13    3.10e-05   -1.30e-11   -1.00e-11   -9.97e-12
Vd:     -6.31e-01    6.31e-01   -1.30e+01   -1.00e+01   -9.97e+00
Req:     1.00e+12    8.36e+02    1.00e+12    1.00e+12    1.00e+12
CAP:     0.00e+00    0.00e+00    0.00e+00    0.00e+00    0.00e+00

Name:    d:u3:e      d:u3:c      d:u8:n2     d:u8:n1     d:u8:q2
Model:    u3:dx       u3:dx       u8:dy       u8:dy       u8:dx
Id:     -1.13e-12   -9.93e-12    1.94e-06    1.94e-06   -5.26e-13
Vd:     -1.13e+00   -9.92e+00    6.00e-01    6.00e-01   -5.25e-01
Req:     1.00e+12    1.00e+12    1.33e+04    1.33e+04    1.00e+12
CAP:     0.00e+00    0.00e+00    0.00e+00    0.00e+00    0.00e+00

Name:    d:u8:q1     d:u8:p      d:u8:ln     d:u8:lp     d:u8:e
Model:    u8:dx       u8:dx       u8:dx       u8:dx       u8:dx
Id:      5.31e-07   -1.30e-11   -1.00e-11   -1.00e-11   -3.80e-13
Vd:      5.25e-01   -1.30e+01   -1.00e+01   -1.00e+01   -3.79e-01
Req:     4.87e+04    1.00e+12    1.00e+12    1.00e+12    1.00e+12
CAP:     0.00e+00    0.00e+00    0.00e+00    0.00e+00    0.00e+00

Name:    d:u8:c      d:u7:n2     d:u7:n1     d:u7:q2     d:u7:q1
Model:    u8:dx       u7:dy       u7:dy       u7:dx       u7:dx
Id:     -1.07e-11    1.94e-06    1.94e-06   -6.79e-13    1.95e-04
Vd:     -1.07e+01    6.00e-01    6.00e-01   -6.78e-01    6.78e-01
Req:     1.00e+12    1.33e+04    1.33e+04    1.00e+12    1.32e+02
CAP:     0.00e+00    0.00e+00    0.00e+00    0.00e+00    0.00e+00

Name:    d:u7:p      d:u7:ln     d:u7:lp     d:u7:e      d:u7:c
Model:    u7:dx       u7:dx       u7:dx       u7:dx       u7:dx
Id:     -1.30e-11   -1.02e-11   -9.81e-12   -1.01e-11   -9.25e-13
Vd:     -1.30e+01   -1.02e+01   -9.80e+00   -1.01e+01   -9.25e-01
Req:     1.00e+12    1.00e+12    1.00e+12    1.00e+12    1.00e+12
CAP:     0.00e+00    0.00e+00    0.00e+00    0.00e+00    0.00e+00

Name:    d:u6:n2     d:u6:n1     d:u6:q2     d:u6:q1     d:u6:p
Model:    u6:dy       u6:dy       u6:dx       u6:dx       u6:dx
Id:      1.94e-06    1.94e-06   -5.26e-13    5.31e-07   -1.30e-11
Vd:      6.00e-01    6.00e-01   -5.25e-01    5.25e-01   -1.30e+01
Req:     1.33e+04    1.33e+04    1.00e+12    4.87e+04    1.00e+12
CAP:     0.00e+00    0.00e+00    0.00e+00    0.00e+00    0.00e+00

Name:    d:u6:ln     d:u6:lp     d:u6:e      d:u6:c      d:u1:n2
Model:    u6:dx       u6:dx       u6:dx       u6:dx       u1:dy
Id:     -1.00e-11   -1.00e-11   -3.80e-13   -1.07e-11    1.94e-06
Vd:     -1.00e+01   -1.00e+01   -3.79e-01   -1.07e+01    6.00e-01
Req:     1.00e+12    1.00e+12    1.00e+12    1.00e+12    1.33e+04
CAP:     0.00e+00    0.00e+00    0.00e+00    0.00e+00    0.00e+00

Name:    d:u1:n1     d:u1:q2     d:u1:q1     d:u1:p      d:u1:ln
Model:    u1:dy       u1:dx       u1:dx       u1:dx       u1:dx
Id:      1.94e-06   -5.26e-13    5.31e-07   -1.30e-11   -1.00e-11
Vd:      6.00e-01   -5.25e-01    5.25e-01   -1.30e+01   -1.00e+01
Req:     1.33e+04    1.00e+12    4.87e+04    1.00e+12    1.00e+12
CAP:     0.00e+00    0.00e+00    0.00e+00    0.00e+00    0.00e+00

Name:    d:u1:lp     d:u1:e      d:u1:c      d:q5:4      d:q5:3
Model:    u1:dx       u1:dx       u1:dx      q5:md3      q5:md2
Id:     -1.00e-11   -3.80e-13   -1.07e-11    9.51e+00    9.51e+00
Vd:     -1.00e+01   -3.79e-01   -1.07e+01    2.62e-01    2.62e-01
Req:     1.00e+12    1.00e+12    1.00e+12    1.09e-03    1.09e-03
CAP:     0.00e+00    0.00e+00    0.00e+00    0.00e+00    0.00e+00

Name:    d:q5:2      d:q5:1      d:q6:1      d:q3:4      d:q3:3
Model:   q5:md1       q5:md     q6:dn0124    q3:md3      q3:md2
Id:      2.62e-13   -5.14e-10   -1.23e-13   -1.10e-10    0.00e+00
Vd:      2.62e-01   -2.17e-03   -1.07e-03   -9.71e+00   -9.71e+00
Req:     1.00e+12    4.33e+06    8.92e+09    1.00e+12    1.00e+12
CAP:     1.02e-10    2.22e-11    0.00e+00    0.00e+00    0.00e+00

Name:    d:q3:2      d:q3:1      d:q4:1      d:q7:4      d:q7:3
Model:   q3:md1       q3:md     q4:dn0124    q7:md3      q7:md2
Id:     -9.71e-12   -9.48e-09   -1.28e-11   -1.10e-10    0.00e+00
Vd:     -9.71e+00   -9.75e+00   -9.74e+00   -9.71e+00   -9.71e+00
Req:     1.00e+12    1.00e+12    1.00e+12    1.00e+12    1.00e+12
CAP:     4.58e-12    6.82e-12    0.00e+00    0.00e+00    0.00e+00

Name:    d:q7:2      d:q7:1      d:q8:1      d:u2:4      d:u2:3
Model:   q7:md1       q7:md     q8:dn0124  u2:dopamp2  u2:dopamp2
Id:     -9.71e-12   -9.48e-09   -1.28e-11   -8.76e-12    2.62e-13
Vd:     -9.71e+00   -9.75e+00   -9.74e+00   -8.76e+00    1.32e-01
Req:     1.00e+12    1.00e+12    1.00e+12    1.00e+12    1.65e+11
CAP:     4.58e-12    6.82e-12    0.00e+00    0.00e+00    0.00e+00

Name:    d:u2:2      d:u2:1      d:q9:1
Model: u2:dopamp1  u2:dopamp1   q9:dbody
Id:     -1.12e-14    1.23e-14   -4.35e-12
Vd:     -3.00e-03    3.00e-03   -4.22e+00
Req:     2.78e+11    2.34e+11    1.00e+12
CAP:     0.00e+00    0.00e+00    2.08e-11

                        --- Bipolar Transistors ---
Name:     q:u5:2      q:u5:1      q:u4:2      q:u4:1      q:u3:2
Model:     u5:qx       u5:qx       u4:qx       u4:qx       u3:qx
Ib:      -5.07e-08   -5.06e-08   -5.01e-08   -5.01e-08   -5.07e-08
Ic:      -3.04e-06   -3.04e-06   -3.01e-06   -3.01e-06   -3.04e-06
Vbe:     -5.71e-01   -5.71e-01   -5.70e-01   -5.70e-01   -5.71e-01
Vbc:      1.73e+00    1.73e+00    5.26e+00    5.26e+00    1.73e+00
Vce:     -2.30e+00   -2.30e+00   -5.83e+00   -5.83e+00   -2.30e+00
BetaDC:   6.00e+01    6.00e+01    6.00e+01    6.00e+01    6.00e+01
Gm:       1.18e-04    1.17e-04    1.16e-04    1.16e-04    1.18e-04
Rpi:      5.10e+05    5.11e+05    5.16e+05    5.16e+05    5.10e+05
Rx:       0.00e+00    0.00e+00    0.00e+00    0.00e+00    0.00e+00
Ro:       3.47e+42    3.49e+42    0.00e+00    0.00e+00    3.47e+42
Cbe:      0.00e+00    0.00e+00    0.00e+00    0.00e+00    0.00e+00
Cbc:      0.00e+00    0.00e+00    0.00e+00    0.00e+00    0.00e+00
Cjs:      0.00e+00    0.00e+00    0.00e+00    0.00e+00    0.00e+00
BetaAC:   6.00e+01    6.00e+01    6.00e+01    6.00e+01    6.00e+01
Cbx:      0.00e+00    0.00e+00    0.00e+00    0.00e+00    0.00e+00
Ft:       0.00e+00    0.00e+00    0.00e+00    0.00e+00    0.00e+00

Name:     q:u3:1      q:u8:2      q:u8:1      q:u7:2      q:u7:1
Model:     u3:qx       u8:qx       u8:qx       u7:qx       u7:qx
Ib:      -5.06e-08   -5.09e-08   -5.07e-08   -4.91e-08   -4.92e-08
Ic:      -3.04e-06   -3.05e-06   -3.04e-06   -2.95e-06   -2.96e-06
Vbe:     -5.71e-01   -5.71e-01   -5.71e-01   -5.70e-01   -5.70e-01
Vbc:      1.73e+00    9.83e-01    9.83e-01    1.07e+01    1.07e+01
Vce:     -2.30e+00   -1.55e+00   -1.55e+00   -1.13e+01   -1.13e+01
BetaDC:   6.00e+01    6.00e+01    6.00e+01    6.00e+01    6.00e+01
Gm:       1.17e-04    1.18e-04    1.18e-04    1.14e-04    1.14e-04
Rpi:      5.11e+05    5.09e+05    5.10e+05    5.26e+05    5.25e+05
Rx:       0.00e+00    0.00e+00    0.00e+00    0.00e+00    0.00e+00
Ro:       3.49e+42    1.03e+30    1.03e+30    0.00e+00    0.00e+00
Cbe:      0.00e+00    0.00e+00    0.00e+00    0.00e+00    0.00e+00
Cbc:      0.00e+00    0.00e+00    0.00e+00    0.00e+00    0.00e+00
Cjs:      0.00e+00    0.00e+00    0.00e+00    0.00e+00    0.00e+00
BetaAC:   6.00e+01    6.00e+01    6.00e+01    6.00e+01    6.00e+01
Cbx:      0.00e+00    0.00e+00    0.00e+00    0.00e+00    0.00e+00
Ft:       0.00e+00    0.00e+00    0.00e+00    0.00e+00    0.00e+00

Name:     q:u6:2      q:u6:1      q:u1:2      q:u1:1           qq2
Model:     u6:qx       u6:qx       u1:qx       u1:qx    qbd135__bjt_npn__1
Ib:      -5.09e-08   -5.07e-08   -5.09e-08   -5.07e-08       7.97e-05
Ic:      -3.05e-06   -3.04e-06   -3.05e-06   -3.04e-06       9.81e-03
Vbe:     -5.71e-01   -5.71e-01   -5.71e-01   -5.71e-01       6.68e-01
Vbc:      9.83e-01    9.83e-01    9.83e-01    9.83e-01      -1.55e+00
Vce:     -1.55e+00   -1.55e+00   -1.55e+00   -1.55e+00       2.22e+00
BetaDC:   6.00e+01    6.00e+01    6.00e+01    6.00e+01       1.23e+02
Gm:       1.18e-04    1.18e-04    1.18e-04    1.18e-04       3.81e-01
Rpi:      5.09e+05    5.10e+05    5.09e+05    5.10e+05       3.21e+02
Rx:       0.00e+00    0.00e+00    0.00e+00    0.00e+00       5.00e-01
Ro:       1.03e+30    1.03e+30    1.03e+30    1.03e+30       2.26e+04
Cbe:      0.00e+00    0.00e+00    0.00e+00    0.00e+00       5.36e-10
Cbc:      0.00e+00    0.00e+00    0.00e+00    0.00e+00       1.71e-11
Cjs:      0.00e+00    0.00e+00    0.00e+00    0.00e+00       0.00e+00
BetaAC:   6.00e+01    6.00e+01    6.00e+01    6.00e+01       1.22e+02
Cbx:      0.00e+00    0.00e+00    0.00e+00    0.00e+00       0.00e+00
Ft:       0.00e+00    0.00e+00    0.00e+00    0.00e+00       1.10e+08

Name:     q:u2:t2     q:u2:t1          qq1
Model:  u2:qopamp2  u2:qopamp1  2n3415__bjt_npn__1
Ib:       6.29e-08    8.04e-08       3.53e-03
Ic:       7.69e-06    7.65e-06       9.75e-03
Vbe:      5.90e-01    5.91e-01       7.75e-01
Vbc:     -7.08e+00   -7.07e+00       7.46e-01
Vce:      7.67e+00    7.67e+00       2.90e-02
BetaDC:   1.22e+02    9.51e+01       2.76e+00
Gm:       2.97e-04    2.96e-04       4.27e-01
Rpi:      4.11e+05    3.21e+05       2.96e+02
Rx:       0.00e+00    0.00e+00       1.00e+01
Ro:       7.42e+06    7.46e+06       2.17e+00
Cbe:      0.00e+00    0.00e+00       5.50e-10
Cbc:      0.00e+00    0.00e+00       4.22e-10
Cjs:      0.00e+00    0.00e+00       0.00e+00
BetaAC:   1.22e+02    9.51e+01       1.26e+02
Cbx:      0.00e+00    0.00e+00       0.00e+00
Ft:       0.00e+00    0.00e+00       7.00e+07

                        --- MOSFET Transistors ---
Name:        m:q5:1      m:q6:1      m:q3:1      m:q4:1      m:q7:1
Model:        q5:mm     q6:mn0124     q3:mm     q4:mn0124     q7:mm
Id:         -9.75e-03    9.78e-05   -1.95e-11    1.95e-11   -1.95e-11
Vgs:        -9.78e+00    5.00e+00   -4.06e-02    0.00e+00   -4.06e-02
Vds:        -2.63e-04    1.07e-03   -9.75e+00    9.74e+00   -9.75e+00
Vbs:         0.00e+00    0.00e+00    0.00e+00    0.00e+00    0.00e+00
Vth:        -8.68e-01    1.55e+00   -8.68e-01    1.55e+00   -8.68e-01
Vdsat:      -8.91e+00    3.45e+00   -0.00e+00    0.00e+00   -0.00e+00
Gm:          1.09e-03    2.83e-05    0.00e+00    0.00e+00    0.00e+00
Gds:         3.70e+01    3.71e+00    0.00e+00    0.00e+00    0.00e+00
Gmb:         0.00e+00    0.00e+00    0.00e+00    0.00e+00    0.00e+00
Cbd:         0.00e+00    3.60e-11    0.00e+00    1.10e-11    0.00e+00
Cbs:         0.00e+00    0.00e+00    0.00e+00    0.00e+00    0.00e+00
Cgsov:       1.38e-10    6.00e-15    1.38e-10    6.00e-15    1.38e-10
Cgdov:       1.16e-11    2.00e-16    1.16e-11    2.00e-16    1.16e-11
Cgbov:       0.00e+00    0.00e+00    0.00e+00    0.00e+00    0.00e+00
Cgs:         0.00e+00    0.00e+00    0.00e+00    0.00e+00    0.00e+00
Cgd:         0.00e+00    0.00e+00    0.00e+00    0.00e+00    0.00e+00
Cgb:         0.00e+00    0.00e+00    0.00e+00    0.00e+00    0.00e+00

Name:        m:q8:1      m:q9:2      m:q9:1         mu9
Model:      q8:mn0124   q9:most2    q9:most1   tn2501__def__1
Id:          1.95e-11   -1.97e-12    8.46e-12     3.53e-03
Vgs:         0.00e+00   -5.00e+00   -7.75e-01     6.91e-01
Vds:         9.74e+00   -2.70e-01    4.22e+00     6.91e-01
Vbs:         0.00e+00   -4.22e+00    0.00e+00     0.00e+00
Vth:         1.55e+00   -4.73e+00    2.00e+00     6.47e-01
Vdsat:       0.00e+00    1.06e-05    0.00e+00     7.31e-02
Gm:          0.00e+00    1.07e-06    0.00e+00     8.87e-02
Gds:         0.00e+00    0.00e+00    0.00e+00     4.26e-04
Gmb:         0.00e+00    0.00e+00    0.00e+00     1.07e-02
Cbd:         1.10e-11    0.00e+00    0.00e+00     0.00e+00
Cbs:         0.00e+00    0.00e+00    0.00e+00     0.00e+00
Cgsov:       6.00e-15    0.00e+00    0.00e+00     1.48e-10
Cgdov:       2.00e-16    0.00e+00    0.00e+00     1.87e-11
Cgbov:       0.00e+00    0.00e+00    0.00e+00     0.00e+00
Cgs:         0.00e+00    0.00e+00    0.00e+00     3.74e-11
Cgd:         0.00e+00    0.00e+00    0.00e+00     0.00e+00
Cgb:         0.00e+00    0.00e+00    6.70e-12     0.00e+00



Date: Wed Feb 01 23:08:27 2023
Total elapsed time: 0.343 seconds.

tnom = 27
temp = 27
method = trap
totiter = 601
traniter = 0
tranpoints = 0
accept = 0
rejected = 0
matrix size = 409
fillins = 811
solver = Normal
Thread vector: 27.5/19.1[4] 0.0/0.0[0] 11.0/7.7[4] 2.6/2.9[1]  2592/500
Matrix Compiler1: 62.91 KB object code size
Matrix Compiler2: 47.12 KB object code size  9.4/8.6/[4.6]

