Circuit: ** DC circuit - 3 **

Direct Newton iteration for .op point skipped.
Gmin stepping method for .op point skipped.
Starting source stepping with srcstepmethod=0
Source Step = 3.0303%
Source Step = 33.3333%
Source Step = 63.6364%
Source Step = 93.9394%
Source stepping succeeded in finding the operating point.

Semiconductor Device Operating Points:
                        --- Diodes ---
Name:    d:q9:bd     d:q4:bd    d:u9:sub     d:u9:4      d:u9:3
Model:   q9:dbd      q4:dbd      u9:dm2      u9:dm2      u9:dm2
Id:     -3.77e-10   -3.77e-10   -1.53e-11    2.92e-02   -1.25e-11
Vd:     -2.66e-02   -2.66e-02   -1.53e+01    8.08e-01   -1.25e+01
Req:     1.23e+08    1.23e+08    1.00e+12    8.86e-01    1.00e+12
CAP:     5.13e-10    5.13e-10    0.00e+00    0.00e+00    0.00e+00

Name:    d:u9:2      d:u9:1      d:q1:bd    d:u2:sub     d:u2:4
Model:   u9:dm1      u9:dm1      q1:dbd      u2:dm2      u2:dm2
Id:      6.32e+01   -9.73e-13   -3.82e-11   -1.53e-11   -1.23e-11
Vd:      9.69e-01   -9.69e-01   -1.20e+01   -1.53e+01   -1.23e+01
Req:     4.09e-04    1.00e+12    1.00e+12    1.00e+12    1.00e+12
CAP:     0.00e+00    0.00e+00    3.19e-11    0.00e+00    0.00e+00

Name:    d:u2:3      d:u2:2      d:u2:1      d:q3:bd    d:u4:sub
Model:   u2:dm2      u2:dm1      u2:dm1      q3:dbd      u4:dm2
Id:      7.88e-05   -1.75e-13    2.75e-12   -5.90e-10   -1.53e-11
Vd:      6.55e-01   -1.72e-01    1.72e-01   -2.57e+00   -1.53e+01
Req:     3.28e+02    1.00e+12    9.94e+09    1.00e+12    1.00e+12
CAP:     0.00e+00    0.00e+00    0.00e+00    2.49e-10    0.00e+00

Name:    d:u4:4      d:u4:3      d:u4:2      d:u4:1     d:q11:bd
Model:   u4:dm2      u4:dm2      u4:dm1      u4:dm1      q11:dbd
Id:     -3.40e-12   -8.29e-12    2.83e-16   -2.83e-16    0.00e+00
Vd:     -3.40e+00   -8.29e+00    2.51e-04   -2.51e-04   -9.43e+00
Req:     1.00e+12    1.00e+12    8.85e+11    8.87e+11    1.00e+12
CAP:     0.00e+00    0.00e+00    0.00e+00    0.00e+00    3.59e-11

Name:    d:q5:bd     d:q6:4      d:q6:3      d:q6:2      d:q6:1
Model:   q5:dbd      q6:md3      q6:md2      q6:md1       q6:md
Id:      0.00e+00   -1.10e-10   -1.10e-10   -9.99e-12   -2.81e-10
Vd:     -4.96e+00   -9.99e+00   -9.99e+00   -9.99e+00   -9.99e+00
Req:     1.00e+12    1.00e+12    1.00e+12    1.00e+12    1.00e+12
CAP:     1.55e-11    0.00e+00    0.00e+00    6.35e-12    1.22e-11

Name:    d:q7:bd     d:q8:4      d:q8:3      d:q8:2      d:q8:1
Model:   q7:dbd      q8:md3      q8:md2      q8:md1       q8:md
Id:      0.00e+00    4.75e+00    4.75e+00    2.54e-13   -3.46e-12
Vd:     -3.93e-02    2.54e-01    2.54e-01    2.54e-01   -4.98e-04
Req:     2.37e+11    2.18e-03    2.18e-03    1.00e+12    1.45e+08
CAP:     4.26e-11    0.00e+00    0.00e+00    1.08e-10    3.41e-11

                        --- Bipolar Transistors ---
Name:     q:u9:2      q:u9:1      q:u2:2      q:u2:1           qq2
Model:    u9:qm2      u9:qm1      u2:qm2      u2:qm1    qbd135__bjt_npn__1
Ib:       4.73e-08    9.24e-08    6.97e-08    7.26e-08       5.12e-03
Ic:       5.18e-06    9.70e-06    7.64e-06    7.61e-06       4.85e-01
Vbe:      5.82e-01    6.01e-01    5.92e-01    5.94e-01       8.57e-01
Vbc:     -1.20e+01   -1.19e+01   -6.96e+00   -6.96e+00      -1.15e+00
Vce:      1.26e+01    1.25e+01    7.55e+00    7.55e+00       2.01e+00
BetaDC:   1.10e+02    1.05e+02    1.10e+02    1.05e+02       9.47e+01
Gm:       2.00e-04    3.75e-04    2.95e-04    2.94e-04       1.54e+01
Rpi:      5.47e+05    2.80e+05    3.71e+05    3.56e+05       5.00e+00
Rx:       0.00e+00    0.00e+00    0.00e+00    0.00e+00       5.00e-01
Ro:       0.00e+00    0.00e+00    0.00e+00    0.00e+00       4.55e+02
Cbe:      0.00e+00    0.00e+00    0.00e+00    0.00e+00       2.74e-08
Cbc:      0.00e+00    0.00e+00    0.00e+00    0.00e+00       1.89e-11
Cjs:      0.00e+00    0.00e+00    0.00e+00    0.00e+00       0.00e+00
BetaAC:   1.09e+02    1.05e+02    1.09e+02    1.05e+02       7.68e+01
Cbx:      0.00e+00    0.00e+00    0.00e+00    0.00e+00       0.00e+00
Ft:       0.00e+00    0.00e+00    0.00e+00    0.00e+00       8.92e+07

Name:     q:u4:2      q:u4:1           qdut
Model:    u4:qm2      u4:qm1    2n3906__bjt_pnp__1
Ib:       6.84e-08    7.13e-08      -1.40e-02
Ic:       7.49e-06    7.48e-06      -4.76e-01
Vbe:      5.92e-01    5.94e-01      -1.05e+00
Vbc:     -1.07e+01   -1.07e+01       3.94e+00
Vce:      1.13e+01    1.13e+01      -4.99e+00
BetaDC:   1.10e+02    1.05e+02       3.39e+01
Gm:       2.89e-04    2.89e-04       9.99e+00
Rpi:      3.78e+05    3.63e+05       1.84e+00
Rx:       0.00e+00    0.00e+00       1.00e+01
Ro:       0.00e+00    0.00e+00       4.54e+01
Cbe:      0.00e+00    0.00e+00       9.11e-09
Cbc:      0.00e+00    0.00e+00       3.90e-12
Cjs:      0.00e+00    0.00e+00       0.00e+00
BetaAC:   1.09e+02    1.05e+02       1.84e+01
Cbx:      0.00e+00    0.00e+00       0.00e+00
Ft:       0.00e+00    0.00e+00       1.74e+08

                        --- MOSFET Transistors ---
Name:        m:q6:1      m:q8:1      m:q9:1      m:q4:1      m:q1:1
Model:        q6:mm       q8:mm      q9:mint     q4:mint     q1:mint
Id:          2.00e-11    9.99e-05   -2.38e-01   -2.38e-01    2.39e-11
Vgs:        -3.01e-13    5.00e+00   -2.33e+00   -2.33e+00   -2.33e+00
Vds:         9.99e+00    3.88e-04   -1.74e-02   -1.74e-02    1.20e+01
Vbs:         0.00e+00    0.00e+00    0.00e+00    0.00e+00    0.00e+00
Vth:         2.24e+00    2.24e+00   -6.36e-01   -6.36e-01    8.66e-01
Vdsat:       0.00e+00    2.76e+00   -1.71e+00   -1.71e+00    4.10e-02
Gm:          0.00e+00    3.61e-05    1.39e-01    1.39e-01    4.68e-34
Gds:         0.00e+00    2.58e-01    1.36e+01    1.36e+01    2.79e-37
Gmb:         0.00e+00    0.00e+00   -0.00e+00   -0.00e+00    0.00e+00
Cbd:         0.00e+00    0.00e+00    0.00e+00    0.00e+00    0.00e+00
Cbs:         0.00e+00    0.00e+00    0.00e+00    0.00e+00    0.00e+00
Cgsov:       1.79e-11    1.79e-11    0.00e+00    0.00e+00    0.00e+00
Cgdov:       1.07e-15    1.07e-15    0.00e+00    0.00e+00    0.00e+00
Cgbov:       0.00e+00    0.00e+00    0.00e+00    0.00e+00    0.00e+00
Cgs:         0.00e+00    0.00e+00    1.73e-12    1.73e-12    0.00e+00
Cgd:         0.00e+00    0.00e+00    1.72e-12    1.72e-12    0.00e+00
Cgb:         0.00e+00    0.00e+00    0.00e+00    0.00e+00    3.45e-12

Name:        m:q3:1      m:q11:1     m:q5:1      m:q7:1
Model:       q3:mint    q11:mint     q5:mint     q7:mint
Id:         -1.39e-02    1.89e-11   -5.28e-06   -4.90e-01
Vgs:        -6.63e-01   -6.64e-01   -3.67e-05   -9.96e+00
Vds:        -2.57e+00    9.43e+00   -4.96e+00   -8.36e-03
Vbs:         0.00e+00    0.00e+00    0.00e+00    0.00e+00
Vth:        -6.30e-01    8.66e-01   -1.27e+00   -1.27e+00
Vdsat:      -5.89e-02    4.10e-02   -1.35e-01   -5.02e+00
Gm:          4.72e-01    1.30e-16    3.87e-05    5.56e-02
Gds:         1.11e-03    7.76e-20    1.01e-08    5.85e+01
Gmb:        -0.00e+00    0.00e+00    0.00e+00   -0.00e+00
Cbd:         0.00e+00    0.00e+00    0.00e+00    0.00e+00
Cbs:         0.00e+00    0.00e+00    0.00e+00    0.00e+00
Cgsov:       0.00e+00    0.00e+00    0.00e+00    0.00e+00
Cgdov:       0.00e+00    0.00e+00    0.00e+00    0.00e+00
Cgbov:       0.00e+00    0.00e+00    0.00e+00    0.00e+00
Cgs:         2.30e-12    0.00e+00    2.30e-12    1.73e-12
Cgd:         0.00e+00    0.00e+00    0.00e+00    1.73e-12
Cgb:         0.00e+00    3.45e-12    0.00e+00    0.00e+00



Date: Wed Apr 19 11:28:16 2023
Total elapsed time: 0.288 seconds.

tnom = 27
temp = 27
method = trap
totiter = 426
traniter = 0
tranpoints = 0
accept = 0
rejected = 0
matrix size = 244
fillins = 464
solver = Normal

